Circuit: * C:\Users\Micha³\Desktop\AVR\dorotki.asc

Direct Newton iteration for .op point succeeded.
Semiconductor Device Operating Points:
                        --- Diodes ---
Name:    d:u2:9      d:u2:8      d:u2:10     d:u2:5      d:u2:4
Model:  u2:dbiasd   u2:dbiasd   u2:dbiasu   u2:dbiasu    u2:dlim
Id:     -1.96e-10   -1.96e-10    9.99e-09    9.99e-09    1.24e-10
Vd:     -1.94e+00   -1.94e+00    4.29e+00    4.29e+00    1.24e-01
Req:     1.00e-10    1.00e-10    1.00e-06    1.00e-06    1.00e-09
CAP:     0.00e+00    0.00e+00    0.00e+00    0.00e+00    0.00e+00

Name:    d:u2:3      d:u2:2      d:u2:7      d:u2:6      d:u2:1
Model:    u2:xd       u2:xu       u2:dp       u2:y        u2:y
Id:      1.88e-09   -6.20e-10    3.19e-04    2.88e-12   -2.88e-12
Vd:      1.44e+00   -6.14e+00    4.70e+00    1.44e+00   -1.44e+00
Req:     1.00e-03    1.00e-10    1.00e-02    1.00e-12    1.00e-12
CAP:     0.00e+00    0.00e+00    0.00e+00    0.00e+00    0.00e+00

                        --- VDMOSFET Transistors ---
Name:        m:u2:2      m:u2:1
Model:        u2:p        u2:n
Id:         -2.81e-06    4.71e-12
Vgs:        -1.44e+00   -1.44e+00
Vds:        -1.26e-04    4.70e+00
Vth:         4.50e-02   -4.50e-02
Gm:          1.89e-06    0.00e+00
Gds:         2.23e-02    0.00e+00
Cgs:         0.00e+00    0.00e+00
Cgd:         0.00e+00    0.00e+00
Cbody:       0.00e+00    0.00e+00



Date: Mon Feb 06 22:46:33 2017
Total elapsed time: 0.762 seconds.

tnom = 27
temp = 27
method = trap
totiter = 402
traniter = 0
tranpoints = 0
accept = 0
rejected = 0
matrix size = 15
fillins = 17
solver = Normal
Matrix Compiler1: 1,50 KB object code size
Matrix Compiler2: off  [0.2]/0.4/0.4


